
T19E0 000:392 SEGGER J-Link V4.80g Log File (0002ms, 0276ms total)
T19E0 000:392 DLL Compiled: Feb 13 2014 20:50:02 (0002ms, 0276ms total)
T19E0 000:392 Logging started @ 2016-04-17 08:44 (0002ms, 0276ms total)
T19E0 000:394 JLINK_SetWarnOutHandler(...) (0000ms, 0276ms total)
T19E0 000:394 JLINK_OpenEx(...)
Firmware: J-Link ARM V8 compiled Dec  1 2015 11:42:48
Hardware: V8.00
S/N: 20080643
Feature(s): RDI,FlashDL,FlashBP,JFlash,GDBFull  returns O.K. (0269ms, 0545ms total)
T19E0 000:663 JLINK_SetErrorOutHandler(...) (0000ms, 0545ms total)
T19E0 000:663 JLINK_ExecCommand("ProjectFile = "C:\Users\JUNGE\Desktop\大创项目记录\project015\USER\JLinkSettings.ini"", ...)  returns 0x00 (0002ms, 0547ms total)
T19E0 000:670 JLINK_ExecCommand("Device = STM32F103ZE", ...)Device "STM32F103ZE" selected (512 KB flash, 64 KB RAM).  returns 0x00 (0008ms, 0555ms total)
T19E0 000:678 JLINK_ExecCommand("DisableConnectionTimeout", ...)  returns 0x01 (0000ms, 0555ms total)
T19E0 000:678 JLINK_GetHardwareVersion()  returns 0x13880 (0000ms, 0555ms total)
T19E0 000:678 JLINK_GetDLLVersion()  returns 48007 (0000ms, 0555ms total)
T19E0 000:678 JLINK_GetFirmwareString(...) (0000ms, 0555ms total)
T19E0 000:689 JLINK_GetDLLVersion()  returns 48007 (0000ms, 0555ms total)
T19E0 000:689 JLINK_GetCompileDateTime() (0000ms, 0555ms total)
T19E0 000:691 JLINK_GetFirmwareString(...) (0001ms, 0556ms total)
T19E0 000:694 JLINK_GetHardwareVersion()  returns 0x13880 (0000ms, 0556ms total)
T19E0 000:705 JLINK_TIF_Select(JLINKARM_TIF_JTAG)  returns 0x00 (0003ms, 0559ms total)
T19E0 000:708 JLINK_SetSpeed(2000) (0000ms, 0559ms total)
T19E0 000:708 JLINK_GetIdData(...) >0x2F8 JTAG>TotalIRLen = 9, IRPrint = 0x0011 >0x30 JTAG> >0x210 JTAG> >0x40 JTAG> >0x40 JTAG> >0x40 JTAG> >0x30 JTAG> >0x40 JTAG> >0x40 JTAG> >0x40 JTAG> >0x40 JTAG> >0x40 JTAG> >0x40 JTAG> >0x40 JTAG> >0x40 JTAG> >0x40 JTAG> >0x40 JTAG> >0x2F8 JTAG>TotalIRLen = 9, IRPrint = 0x0011 >0x30 JTAG> >0x210 JTAG> >0x70 JTAG> >0x40 JTAG> >0x40 JTAG> >0x40 JTAG> >0x50 JTAG> >0x80 JTAG> >0x40 JTAG> >0x30 JTAG> >0x40 JTAG> >0x40 JTAG> >0x30 JTAG> >0x40 JTAG> >0x50 JTAG>
Found Cortex-M3 r1p1, Little endian. >0x1F0 JTAG> >0x1F0 JTAG> >0x1F0 JTAG> >0x1F0 JTAG>FPUnit: 6 code (BP) slots and 2 literal slots >0x1F0 JTAG> >0x1F0 JTAG> >0x1F0 JTAG> >0x1F0 JTAG> >0x1F0 JTAG>TPIU fitted. >0x1F0 JTAG>ETM fitted. >0x1F0 JTAG> ScanLen=9 NumDevices=2 aId[0]=0x3BA00477 aIrRead[0]=0 aScanLen[0]=0 aScanRead[0]=0 (0051ms, 0610ms total)
T19E0 000:759 JLINK_JTAG_GetDeviceID(DeviceIndex = 0)  returns 0x3BA00477 (0000ms, 0610ms total)
T19E0 000:759 JLINK_JTAG_GetDeviceInfo(DeviceIndex = 0)  returns 0x00 (0000ms, 0610ms total)
T19E0 000:759 JLINK_JTAG_GetDeviceID(DeviceIndex = 1)  returns 0x6414041 (0000ms, 0610ms total)
T19E0 000:760 JLINK_JTAG_GetDeviceInfo(DeviceIndex = 1)  returns 0x00 (0000ms, 0610ms total)
T19E0 000:760 JLINK_GetDeviceFamily()  returns 3 (0000ms, 0610ms total)
T19E0 000:761 JLINK_ReadMem (0xE00FFFF0, 0x0010 Bytes, ...) -- CPU is running >0x2A8 JTAG> -- Data:  0D 00 00 00 10 00 00 00 05 00 00 00 B1 00 00 00  returns 0x00 (0002ms, 0612ms total)
T19E0 000:763 JLINK_ReadMem (0xE00FFFD0, 0x0020 Bytes, ...) -- CPU is running >0x398 JTAG> -- Data:  00 00 00 00 00 00 00 00 00 00 00 00 00 00 00 00 ...  returns 0x00 (0002ms, 0614ms total)
T19E0 000:765 JLINK_ReadMem (0xE00FF000, 0x0018 Bytes, ...) -- CPU is running >0x320 JTAG> -- Data:  03 F0 F0 FF 03 20 F0 FF 03 30 F0 FF 03 10 F0 FF ...  returns 0x00 (0002ms, 0616ms total)
T19E0 000:767 JLINK_ReadMemU32(0xE000ED00, 0x0001 Items, ...) -- CPU is running >0x1F0 JTAG> -- Data:  31 C2 1F 41  returns 0x01 (0001ms, 0617ms total)
T19E0 000:768 JLINK_SetResetType(JLINKARM_RESET_TYPE_NORMAL)  returns JLINKARM_RESET_TYPE_NORMAL (0000ms, 0617ms total)
T19E0 000:768 JLINK_Reset() -- CPU is running >0x1F0 JTAG> -- CPU is running >0x1F0 JTAG> -- CPU is running >0x230 JTAG> -- CPU is running >0x1F0 JTAG> -- CPU is running >0x1F0 JTAG> -- CPU is running >0x1F0 JTAG> -- CPU is running >0x1F0 JTAG> -- CPU is running >0x1F0 JTAG> -- CPU is running >0x1F0 JTAG> >0x198 JTAG> >0x17A8 JTAG> >0x40 JTAG> >0x40 JTAG> >0x30 JTAG> >0x40 JTAG> >0x50 JTAG> >0x40 JTAG> >0x1F0 JTAG> >0x1F0 JTAG> >0x1F0 JTAG> >0x1F0 JTAG> >0x1F0 JTAG> >0x1F0 JTAG> >0x1F0 JTAG> >0x1F0 JTAG>
 (0050ms, 0667ms total)
T19E0 000:818 JLINK_Halt()  returns 0x00 (0000ms, 0667ms total)
T19E0 000:818 JLINK_IsHalted()  returns TRUE (0000ms, 0667ms total)
T19E0 000:818 JLINK_ReadMemU32(0xE000EDF0, 0x0001 Items, ...) >0x1F0 JTAG> -- Data:  03 00 03 00  returns 0x01 (0002ms, 0669ms total)
T19E0 000:820 JLINK_WriteU32(0xE000EDF0, 0xA05F0003) >0x1F0 JTAG>  returns 0x00 (0002ms, 0671ms total)
T19E0 000:822 JLINK_WriteU32(0xE000EDFC, 0x01000000) >0x1F0 JTAG>  returns 0x00 (0001ms, 0672ms total)
T19E0 000:834 JLINK_GetHWStatus(...)  returns 0x00 (0001ms, 0673ms total)
T19E0 000:844 JLINK_GetNumBPUnits(Type = 0xFFFFFF00)  returns 0x06 (0000ms, 0673ms total)
T19E0 000:844 JLINK_GetNumBPUnits(Type = 0xF0)  returns 0x2000 (0000ms, 0673ms total)
T19E0 000:844 JLINK_GetNumWPUnits()  returns 0x04 (0001ms, 0674ms total)
T19E0 000:853 JLINK_GetSpeed()  returns 0x7D0 (0000ms, 0674ms total)
T19E0 000:857 JLINK_ReadMemU32(0xE000E004, 0x0001 Items, ...) >0x1F0 JTAG> -- Data:  01 00 00 00  returns 0x01 (0002ms, 0676ms total)
T19E0 000:859 JLINK_ReadMemU32(0xE000E004, 0x0001 Items, ...) >0x1F0 JTAG> -- Data:  01 00 00 00  returns 0x01 (0001ms, 0677ms total)
T19E0 000:860 JLINK_WriteMem(0xE0001000, 0x001C Bytes, ...) -- Data:  01 00 00 00 00 00 00 00 00 00 00 00 00 00 00 00 ... >0x310 JTAG>  returns 0x1C (0002ms, 0679ms total)
T19E0 000:862 JLINK_ReadMem (0xE0001000, 0x001C Bytes, ...) >0x358 JTAG> -- Data:  01 00 00 40 00 00 00 00 00 00 00 00 00 00 00 00 ...  returns 0x00 (0002ms, 0681ms total)
T19E0 000:864 JLINK_Halt()  returns 0x00 (0000ms, 0681ms total)
T19E0 000:864 JLINK_IsHalted()  returns TRUE (0000ms, 0681ms total)
T19E0 000:867 JLINK_WriteMem(0x20000000, 0x0164 Bytes, ...) -- Data:  00 BE 0A E0 0D 78 2D 06 68 40 08 24 40 00 00 D3 ... >0x1270 JTAG>  returns 0x164 (0005ms, 0686ms total)
T19E0 000:872 JLINK_WriteReg(R0, 0x08000000)  returns 0x00 (0000ms, 0686ms total)
T19E0 000:872 JLINK_WriteReg(R1, 0x00B71B00)  returns 0x00 (0000ms, 0686ms total)
T19E0 000:872 JLINK_WriteReg(R2, 0x00000001)  returns 0x00 (0000ms, 0686ms total)
T19E0 000:872 JLINK_WriteReg(R3, 0x00000000)  returns 0x00 (0000ms, 0686ms total)
T19E0 000:872 JLINK_WriteReg(R4, 0x00000000)  returns 0x00 (0000ms, 0686ms total)
T19E0 000:872 JLINK_WriteReg(R5, 0x00000000)  returns 0x00 (0000ms, 0686ms total)
T19E0 000:872 JLINK_WriteReg(R6, 0x00000000)  returns 0x00 (0001ms, 0687ms total)
T19E0 000:873 JLINK_WriteReg(R7, 0x00000000)  returns 0x00 (0000ms, 0687ms total)
T19E0 000:873 JLINK_WriteReg(R8, 0x00000000)  returns 0x00 (0000ms, 0687ms total)
T19E0 000:873 JLINK_WriteReg(R9, 0x20000160)  returns 0x00 (0000ms, 0687ms total)
T19E0 000:873 JLINK_WriteReg(R10, 0x00000000)  returns 0x00 (0000ms, 0687ms total)
T19E0 000:873 JLINK_WriteReg(R11, 0x00000000)  returns 0x00 (0000ms, 0687ms total)
T19E0 000:873 JLINK_WriteReg(R12, 0x00000000)  returns 0x00 (0000ms, 0687ms total)
T19E0 000:873 JLINK_WriteReg(R13 (SP), 0x20001000)  returns 0x00 (0000ms, 0687ms total)
T19E0 000:873 JLINK_WriteReg(R14, 0x20000001)  returns 0x00 (0000ms, 0687ms total)
T19E0 000:873 JLINK_WriteReg(R15 (PC), 0x20000038)  returns 0x00 (0000ms, 0687ms total)
T19E0 000:873 JLINK_WriteReg(XPSR, 0x01000000)  returns 0x00 (0000ms, 0687ms total)
T19E0 000:873 JLINK_WriteReg(MSP, 0x20001000)  returns 0x00 (0000ms, 0687ms total)
T19E0 000:873 JLINK_WriteReg(PSP, 0x20001000)  returns 0x00 (0000ms, 0687ms total)
T19E0 000:873 JLINK_WriteReg(CFBP, 0x00000000)  returns 0x00 (0000ms, 0687ms total)
T19E0 000:873 JLINK_SetBPEx(Addr = 0x20000000, Type = 0xFFFFFFF2) >0x1F0 JTAG>  returns 0x00000001 (0002ms, 0689ms total)
T19E0 000:875 JLINK_Go() >0x1F0 JTAG> >0x1F0 JTAG> >0x1F0 JTAG> >0x1F0 JTAG> >0x1F0 JTAG> >0x1F0 JTAG> >0x1F0 JTAG> >0x310 JTAG> >0x218 JTAG> >0x218 JTAG> >0x218 JTAG> >0x218 JTAG> >0x218 JTAG> >0x218 JTAG> >0x218 JTAG> >0x218 JTAG> >0x218 JTAG> >0x218 JTAG> >0x218 JTAG> >0x218 JTAG> >0x218 JTAG> >0x218 JTAG> >0x218 JTAG> >0x218 JTAG> >0x240 JTAG> >0x240 JTAG> (0033ms, 0722ms total)
T19E0 000:908 JLINK_IsHalted() >0x198 JTAG> >0x17A8 JTAG> >0x1F0 JTAG>  returns TRUE (0008ms, 0730ms total)
T19E0 000:916 JLINK_ReadReg(R15 (PC))  returns 0x20000000 (0000ms, 0722ms total)
T19E0 000:916 JLINK_ClrBPEx(BPHandle = 0x00000001)  returns 0x00 (0000ms, 0722ms total)
T19E0 000:916 JLINK_ReadReg(R0)  returns 0x00000000 (0000ms, 0722ms total)
T19E0 000:917 JLINK_WriteReg(R0, 0x08000000)  returns 0x00 (0000ms, 0722ms total)
T19E0 000:917 JLINK_WriteReg(R1, 0x00000800)  returns 0x00 (0000ms, 0722ms total)
T19E0 000:917 JLINK_WriteReg(R2, 0x000000FF)  returns 0x00 (0000ms, 0722ms total)
T19E0 000:917 JLINK_WriteReg(R3, 0x00000000)  returns 0x00 (0000ms, 0722ms total)
T19E0 000:917 JLINK_WriteReg(R4, 0x00000000)  returns 0x00 (0000ms, 0722ms total)
T19E0 000:917 JLINK_WriteReg(R5, 0x00000000)  returns 0x00 (0000ms, 0722ms total)
T19E0 000:917 JLINK_WriteReg(R6, 0x00000000)  returns 0x00 (0000ms, 0722ms total)
T19E0 000:917 JLINK_WriteReg(R7, 0x00000000)  returns 0x00 (0000ms, 0722ms total)
T19E0 000:917 JLINK_WriteReg(R8, 0x00000000)  returns 0x00 (0001ms, 0723ms total)
T19E0 000:918 JLINK_WriteReg(R9, 0x20000160)  returns 0x00 (0000ms, 0723ms total)
T19E0 000:918 JLINK_WriteReg(R10, 0x00000000)  returns 0x00 (0000ms, 0723ms total)
T19E0 000:918 JLINK_WriteReg(R11, 0x00000000)  returns 0x00 (0000ms, 0723ms total)
T19E0 000:918 JLINK_WriteReg(R12, 0x00000000)  returns 0x00 (0000ms, 0723ms total)
T19E0 000:918 JLINK_WriteReg(R13 (SP), 0x20001000)  returns 0x00 (0000ms, 0723ms total)
T19E0 000:918 JLINK_WriteReg(R14, 0x20000001)  returns 0x00 (0000ms, 0723ms total)
T19E0 000:918 JLINK_WriteReg(R15 (PC), 0x20000020)  returns 0x00 (0000ms, 0723ms total)
T19E0 000:918 JLINK_WriteReg(XPSR, 0x01000000)  returns 0x00 (0001ms, 0724ms total)
T19E0 000:919 JLINK_WriteReg(MSP, 0x20001000)  returns 0x00 (0000ms, 0724ms total)
T19E0 000:919 JLINK_WriteReg(PSP, 0x20001000)  returns 0x00 (0000ms, 0724ms total)
T19E0 000:919 JLINK_WriteReg(CFBP, 0x00000000)  returns 0x00 (0000ms, 0724ms total)
T19E0 000:919 JLINK_SetBPEx(Addr = 0x20000000, Type = 0xFFFFFFF2)  returns 0x00000002 (0000ms, 0724ms total)
T19E0 000:919 JLINK_Go() >0x310 JTAG> >0x218 JTAG> >0x218 JTAG> >0x218 JTAG> >0x218 JTAG> >0x218 JTAG> >0x240 JTAG> >0x240 JTAG> (0012ms, 0736ms total)
T19E0 000:932 JLINK_IsHalted() >0x198 JTAG>  returns FALSE (0001ms, 0737ms total)
T19E0 001:093 JLINK_IsHalted() >0x198 JTAG> >0x17A8 JTAG> >0x1F0 JTAG>  returns TRUE (0009ms, 0745ms total)
T19E0 001:102 JLINK_ReadReg(R15 (PC))  returns 0x20000000 (0000ms, 0736ms total)
T19E0 001:102 JLINK_ClrBPEx(BPHandle = 0x00000002)  returns 0x00 (0000ms, 0736ms total)
T19E0 001:102 JLINK_ReadReg(R0)  returns 0x00000000 (0000ms, 0736ms total)
T19E0 001:103 JLINK_WriteReg(R0, 0x08000800)  returns 0x00 (0000ms, 0736ms total)
T19E0 001:103 JLINK_WriteReg(R1, 0x00000800)  returns 0x00 (0000ms, 0736ms total)
T19E0 001:103 JLINK_WriteReg(R2, 0x000000FF)  returns 0x00 (0000ms, 0736ms total)
T19E0 001:103 JLINK_WriteReg(R3, 0x00000000)  returns 0x00 (0000ms, 0736ms total)
T19E0 001:103 JLINK_WriteReg(R4, 0x00000000)  returns 0x00 (0000ms, 0736ms total)
T19E0 001:103 JLINK_WriteReg(R5, 0x00000000)  returns 0x00 (0000ms, 0736ms total)
T19E0 001:103 JLINK_WriteReg(R6, 0x00000000)  returns 0x00 (0000ms, 0736ms total)
T19E0 001:103 JLINK_WriteReg(R7, 0x00000000)  returns 0x00 (0000ms, 0736ms total)
T19E0 001:103 JLINK_WriteReg(R8, 0x00000000)  returns 0x00 (0001ms, 0737ms total)
T19E0 001:104 JLINK_WriteReg(R9, 0x20000160)  returns 0x00 (0000ms, 0737ms total)
T19E0 001:104 JLINK_WriteReg(R10, 0x00000000)  returns 0x00 (0000ms, 0737ms total)
T19E0 001:104 JLINK_WriteReg(R11, 0x00000000)  returns 0x00 (0000ms, 0737ms total)
T19E0 001:104 JLINK_WriteReg(R12, 0x00000000)  returns 0x00 (0000ms, 0737ms total)
T19E0 001:104 JLINK_WriteReg(R13 (SP), 0x20001000)  returns 0x00 (0000ms, 0737ms total)
T19E0 001:104 JLINK_WriteReg(R14, 0x20000001)  returns 0x00 (0000ms, 0737ms total)
T19E0 001:104 JLINK_WriteReg(R15 (PC), 0x20000020)  returns 0x00 (0000ms, 0737ms total)
T19E0 001:104 JLINK_WriteReg(XPSR, 0x01000000)  returns 0x00 (0000ms, 0737ms total)
T19E0 001:104 JLINK_WriteReg(MSP, 0x20001000)  returns 0x00 (0000ms, 0737ms total)
T19E0 001:104 JLINK_WriteReg(PSP, 0x20001000)  returns 0x00 (0000ms, 0737ms total)
T19E0 001:104 JLINK_WriteReg(CFBP, 0x00000000)  returns 0x00 (0000ms, 0737ms total)
T19E0 001:104 JLINK_SetBPEx(Addr = 0x20000000, Type = 0xFFFFFFF2)  returns 0x00000003 (0000ms, 0737ms total)
T19E0 001:104 JLINK_Go() >0x310 JTAG> >0x218 JTAG> >0x218 JTAG> >0x218 JTAG> >0x218 JTAG> >0x240 JTAG> >0x240 JTAG> (0012ms, 0749ms total)
T19E0 001:116 JLINK_IsHalted() >0x198 JTAG>  returns FALSE (0001ms, 0750ms total)
T19E0 001:141 JLINK_IsHalted() >0x198 JTAG> >0x17A8 JTAG> >0x1F0 JTAG>  returns TRUE (0008ms, 0757ms total)
T19E0 001:149 JLINK_ReadReg(R15 (PC))  returns 0x20000000 (0000ms, 0749ms total)
T19E0 001:149 JLINK_ClrBPEx(BPHandle = 0x00000003)  returns 0x00 (0000ms, 0749ms total)
T19E0 001:149 JLINK_ReadReg(R0)  returns 0x00000000 (0000ms, 0749ms total)
T19E0 001:150 JLINK_WriteReg(R0, 0x08001000)  returns 0x00 (0000ms, 0749ms total)
T19E0 001:150 JLINK_WriteReg(R1, 0x00000800)  returns 0x00 (0000ms, 0749ms total)
T19E0 001:150 JLINK_WriteReg(R2, 0x000000FF)  returns 0x00 (0000ms, 0749ms total)
T19E0 001:150 JLINK_WriteReg(R3, 0x00000000)  returns 0x00 (0000ms, 0749ms total)
T19E0 001:150 JLINK_WriteReg(R4, 0x00000000)  returns 0x00 (0000ms, 0749ms total)
T19E0 001:150 JLINK_WriteReg(R5, 0x00000000)  returns 0x00 (0000ms, 0749ms total)
T19E0 001:150 JLINK_WriteReg(R6, 0x00000000)  returns 0x00 (0001ms, 0750ms total)
T19E0 001:151 JLINK_WriteReg(R7, 0x00000000)  returns 0x00 (0000ms, 0750ms total)
T19E0 001:151 JLINK_WriteReg(R8, 0x00000000)  returns 0x00 (0000ms, 0750ms total)
T19E0 001:151 JLINK_WriteReg(R9, 0x20000160)  returns 0x00 (0000ms, 0750ms total)
T19E0 001:151 JLINK_WriteReg(R10, 0x00000000)  returns 0x00 (0000ms, 0750ms total)
T19E0 001:151 JLINK_WriteReg(R11, 0x00000000)  returns 0x00 (0000ms, 0750ms total)
T19E0 001:151 JLINK_WriteReg(R12, 0x00000000)  returns 0x00 (0000ms, 0750ms total)
T19E0 001:151 JLINK_WriteReg(R13 (SP), 0x20001000)  returns 0x00 (0000ms, 0750ms total)
T19E0 001:151 JLINK_WriteReg(R14, 0x20000001)  returns 0x00 (0000ms, 0750ms total)
T19E0 001:151 JLINK_WriteReg(R15 (PC), 0x20000020)  returns 0x00 (0000ms, 0750ms total)
T19E0 001:151 JLINK_WriteReg(XPSR, 0x01000000)  returns 0x00 (0000ms, 0750ms total)
T19E0 001:151 JLINK_WriteReg(MSP, 0x20001000)  returns 0x00 (0000ms, 0750ms total)
T19E0 001:151 JLINK_WriteReg(PSP, 0x20001000)  returns 0x00 (0000ms, 0750ms total)
T19E0 001:151 JLINK_WriteReg(CFBP, 0x00000000)  returns 0x00 (0000ms, 0750ms total)
T19E0 001:151 JLINK_SetBPEx(Addr = 0x20000000, Type = 0xFFFFFFF2)  returns 0x00000004 (0000ms, 0750ms total)
T19E0 001:151 JLINK_Go() >0x310 JTAG> >0x218 JTAG> >0x218 JTAG> >0x218 JTAG> >0x218 JTAG> >0x240 JTAG> >0x240 JTAG> (0012ms, 0762ms total)
T19E0 001:163 JLINK_IsHalted() >0x198 JTAG>  returns FALSE (0001ms, 0763ms total)
T19E0 001:171 JLINK_IsHalted() >0x198 JTAG> >0x17A8 JTAG> >0x1F0 JTAG>  returns TRUE (0008ms, 0770ms total)
T19E0 001:179 JLINK_ReadReg(R15 (PC))  returns 0x20000000 (0000ms, 0762ms total)
T19E0 001:179 JLINK_ClrBPEx(BPHandle = 0x00000004)  returns 0x00 (0000ms, 0762ms total)
T19E0 001:179 JLINK_ReadReg(R0)  returns 0x00000000 (0000ms, 0762ms total)
T19E0 001:180 JLINK_WriteReg(R0, 0x08001800)  returns 0x00 (0000ms, 0762ms total)
T19E0 001:180 JLINK_WriteReg(R1, 0x00000800)  returns 0x00 (0000ms, 0762ms total)
T19E0 001:180 JLINK_WriteReg(R2, 0x000000FF)  returns 0x00 (0000ms, 0762ms total)
T19E0 001:180 JLINK_WriteReg(R3, 0x00000000)  returns 0x00 (0000ms, 0762ms total)
T19E0 001:180 JLINK_WriteReg(R4, 0x00000000)  returns 0x00 (0001ms, 0763ms total)
T19E0 001:181 JLINK_WriteReg(R5, 0x00000000)  returns 0x00 (0000ms, 0763ms total)
T19E0 001:181 JLINK_WriteReg(R6, 0x00000000)  returns 0x00 (0000ms, 0763ms total)
T19E0 001:181 JLINK_WriteReg(R7, 0x00000000)  returns 0x00 (0000ms, 0763ms total)
T19E0 001:181 JLINK_WriteReg(R8, 0x00000000)  returns 0x00 (0000ms, 0763ms total)
T19E0 001:181 JLINK_WriteReg(R9, 0x20000160)  returns 0x00 (0000ms, 0763ms total)
T19E0 001:181 JLINK_WriteReg(R10, 0x00000000)  returns 0x00 (0000ms, 0763ms total)
T19E0 001:181 JLINK_WriteReg(R11, 0x00000000)  returns 0x00 (0000ms, 0763ms total)
T19E0 001:181 JLINK_WriteReg(R12, 0x00000000)  returns 0x00 (0000ms, 0763ms total)
T19E0 001:181 JLINK_WriteReg(R13 (SP), 0x20001000)  returns 0x00 (0000ms, 0763ms total)
T19E0 001:181 JLINK_WriteReg(R14, 0x20000001)  returns 0x00 (0000ms, 0763ms total)
T19E0 001:181 JLINK_WriteReg(R15 (PC), 0x20000020)  returns 0x00 (0000ms, 0763ms total)
T19E0 001:181 JLINK_WriteReg(XPSR, 0x01000000)  returns 0x00 (0000ms, 0763ms total)
T19E0 001:181 JLINK_WriteReg(MSP, 0x20001000)  returns 0x00 (0000ms, 0763ms total)
T19E0 001:181 JLINK_WriteReg(PSP, 0x20001000)  returns 0x00 (0001ms, 0764ms total)
T19E0 001:182 JLINK_WriteReg(CFBP, 0x00000000)  returns 0x00 (0000ms, 0764ms total)
T19E0 001:182 JLINK_SetBPEx(Addr = 0x20000000, Type = 0xFFFFFFF2)  returns 0x00000005 (0000ms, 0764ms total)
T19E0 001:182 JLINK_Go() >0x310 JTAG> >0x218 JTAG> >0x218 JTAG> >0x218 JTAG> >0x218 JTAG> >0x240 JTAG> >0x240 JTAG> (0012ms, 0776ms total)
T19E0 001:194 JLINK_IsHalted() >0x198 JTAG>  returns FALSE (0001ms, 0777ms total)
T19E0 001:196 JLINK_IsHalted() >0x198 JTAG>  returns FALSE (0001ms, 0777ms total)
T19E0 001:198 JLINK_IsHalted() >0x198 JTAG> >0x17A8 JTAG> >0x1F0 JTAG>  returns TRUE (0009ms, 0785ms total)
T19E0 001:207 JLINK_ReadReg(R15 (PC))  returns 0x20000000 (0000ms, 0776ms total)
T19E0 001:207 JLINK_ClrBPEx(BPHandle = 0x00000005)  returns 0x00 (0000ms, 0776ms total)
T19E0 001:207 JLINK_ReadReg(R0)  returns 0x00000000 (0000ms, 0776ms total)
T19E0 001:208 JLINK_WriteReg(R0, 0x08002000)  returns 0x00 (0000ms, 0776ms total)
T19E0 001:208 JLINK_WriteReg(R1, 0x00000800)  returns 0x00 (0000ms, 0776ms total)
T19E0 001:208 JLINK_WriteReg(R2, 0x000000FF)  returns 0x00 (0000ms, 0776ms total)
T19E0 001:208 JLINK_WriteReg(R3, 0x00000000)  returns 0x00 (0000ms, 0776ms total)
T19E0 001:208 JLINK_WriteReg(R4, 0x00000000)  returns 0x00 (0000ms, 0776ms total)
T19E0 001:208 JLINK_WriteReg(R5, 0x00000000)  returns 0x00 (0000ms, 0776ms total)
T19E0 001:208 JLINK_WriteReg(R6, 0x00000000)  returns 0x00 (0000ms, 0776ms total)
T19E0 001:208 JLINK_WriteReg(R7, 0x00000000)  returns 0x00 (0000ms, 0776ms total)
T19E0 001:208 JLINK_WriteReg(R8, 0x00000000)  returns 0x00 (0000ms, 0776ms total)
T19E0 001:208 JLINK_WriteReg(R9, 0x20000160)  returns 0x00 (0000ms, 0776ms total)
T19E0 001:208 JLINK_WriteReg(R10, 0x00000000)  returns 0x00 (0000ms, 0776ms total)
T19E0 001:209 JLINK_WriteReg(R11, 0x00000000)  returns 0x00 (0000ms, 0777ms total)
T19E0 001:209 JLINK_WriteReg(R12, 0x00000000)  returns 0x00 (0000ms, 0777ms total)
T19E0 001:209 JLINK_WriteReg(R13 (SP), 0x20001000)  returns 0x00 (0000ms, 0777ms total)
T19E0 001:209 JLINK_WriteReg(R14, 0x20000001)  returns 0x00 (0000ms, 0777ms total)
T19E0 001:209 JLINK_WriteReg(R15 (PC), 0x20000020)  returns 0x00 (0000ms, 0777ms total)
T19E0 001:209 JLINK_WriteReg(XPSR, 0x01000000)  returns 0x00 (0000ms, 0777ms total)
T19E0 001:209 JLINK_WriteReg(MSP, 0x20001000)  returns 0x00 (0000ms, 0777ms total)
T19E0 001:209 JLINK_WriteReg(PSP, 0x20001000)  returns 0x00 (0000ms, 0777ms total)
T19E0 001:209 JLINK_WriteReg(CFBP, 0x00000000)  returns 0x00 (0000ms, 0777ms total)
T19E0 001:209 JLINK_SetBPEx(Addr = 0x20000000, Type = 0xFFFFFFF2)  returns 0x00000006 (0000ms, 0777ms total)
T19E0 001:209 JLINK_Go() >0x310 JTAG> >0x218 JTAG> >0x218 JTAG> >0x218 JTAG> >0x218 JTAG> >0x240 JTAG> >0x240 JTAG> (0011ms, 0788ms total)
T19E0 001:220 JLINK_IsHalted() >0x198 JTAG>  returns FALSE (0002ms, 0790ms total)
T19E0 001:236 JLINK_IsHalted() >0x198 JTAG> >0x17A8 JTAG> >0x1F0 JTAG>  returns TRUE (0009ms, 0797ms total)
T19E0 001:245 JLINK_ReadReg(R15 (PC))  returns 0x20000000 (0000ms, 0788ms total)
T19E0 001:245 JLINK_ClrBPEx(BPHandle = 0x00000006)  returns 0x00 (0000ms, 0788ms total)
T19E0 001:245 JLINK_ReadReg(R0)  returns 0x00000000 (0000ms, 0788ms total)
T19E0 001:246 JLINK_WriteReg(R0, 0x08002800)  returns 0x00 (0000ms, 0788ms total)
T19E0 001:246 JLINK_WriteReg(R1, 0x00000800)  returns 0x00 (0000ms, 0788ms total)
T19E0 001:246 JLINK_WriteReg(R2, 0x000000FF)  returns 0x00 (0000ms, 0788ms total)
T19E0 001:246 JLINK_WriteReg(R3, 0x00000000)  returns 0x00 (0000ms, 0788ms total)
T19E0 001:246 JLINK_WriteReg(R4, 0x00000000)  returns 0x00 (0000ms, 0788ms total)
T19E0 001:246 JLINK_WriteReg(R5, 0x00000000)  returns 0x00 (0001ms, 0789ms total)
T19E0 001:247 JLINK_WriteReg(R6, 0x00000000)  returns 0x00 (0000ms, 0789ms total)
T19E0 001:247 JLINK_WriteReg(R7, 0x00000000)  returns 0x00 (0000ms, 0789ms total)
T19E0 001:247 JLINK_WriteReg(R8, 0x00000000)  returns 0x00 (0000ms, 0789ms total)
T19E0 001:247 JLINK_WriteReg(R9, 0x20000160)  returns 0x00 (0000ms, 0789ms total)
T19E0 001:247 JLINK_WriteReg(R10, 0x00000000)  returns 0x00 (0000ms, 0789ms total)
T19E0 001:247 JLINK_WriteReg(R11, 0x00000000)  returns 0x00 (0000ms, 0789ms total)
T19E0 001:247 JLINK_WriteReg(R12, 0x00000000)  returns 0x00 (0000ms, 0789ms total)
T19E0 001:247 JLINK_WriteReg(R13 (SP), 0x20001000)  returns 0x00 (0000ms, 0789ms total)
T19E0 001:247 JLINK_WriteReg(R14, 0x20000001)  returns 0x00 (0000ms, 0789ms total)
T19E0 001:247 JLINK_WriteReg(R15 (PC), 0x20000020)  returns 0x00 (0000ms, 0789ms total)
T19E0 001:247 JLINK_WriteReg(XPSR, 0x01000000)  returns 0x00 (0000ms, 0789ms total)
T19E0 001:247 JLINK_WriteReg(MSP, 0x20001000)  returns 0x00 (0000ms, 0789ms total)
T19E0 001:248 JLINK_WriteReg(PSP, 0x20001000)  returns 0x00 (0000ms, 0790ms total)
T19E0 001:248 JLINK_WriteReg(CFBP, 0x00000000)  returns 0x00 (0000ms, 0790ms total)
T19E0 001:248 JLINK_SetBPEx(Addr = 0x20000000, Type = 0xFFFFFFF2)  returns 0x00000007 (0000ms, 0790ms total)
T19E0 001:248 JLINK_Go() >0x310 JTAG> >0x218 JTAG> >0x218 JTAG> >0x218 JTAG> >0x218 JTAG> >0x240 JTAG> >0x240 JTAG> (0012ms, 0802ms total)
T19E0 001:260 JLINK_IsHalted() >0x198 JTAG>  returns FALSE (0001ms, 0803ms total)
T19E0 001:279 JLINK_IsHalted() >0x198 JTAG> >0x17A8 JTAG> >0x1F0 JTAG>  returns TRUE (0009ms, 0811ms total)
T19E0 001:288 JLINK_ReadReg(R15 (PC))  returns 0x20000000 (0000ms, 0802ms total)
T19E0 001:288 JLINK_ClrBPEx(BPHandle = 0x00000007)  returns 0x00 (0000ms, 0802ms total)
T19E0 001:288 JLINK_ReadReg(R0)  returns 0x00000000 (0000ms, 0802ms total)
T19E0 001:289 JLINK_WriteReg(R0, 0x08003000)  returns 0x00 (0001ms, 0803ms total)
T19E0 001:290 JLINK_WriteReg(R1, 0x00000800)  returns 0x00 (0000ms, 0803ms total)
T19E0 001:290 JLINK_WriteReg(R2, 0x000000FF)  returns 0x00 (0000ms, 0803ms total)
T19E0 001:290 JLINK_WriteReg(R3, 0x00000000)  returns 0x00 (0000ms, 0803ms total)
T19E0 001:290 JLINK_WriteReg(R4, 0x00000000)  returns 0x00 (0000ms, 0803ms total)
T19E0 001:290 JLINK_WriteReg(R5, 0x00000000)  returns 0x00 (0000ms, 0803ms total)
T19E0 001:290 JLINK_WriteReg(R6, 0x00000000)  returns 0x00 (0000ms, 0803ms total)
T19E0 001:290 JLINK_WriteReg(R7, 0x00000000)  returns 0x00 (0000ms, 0803ms total)
T19E0 001:290 JLINK_WriteReg(R8, 0x00000000)  returns 0x00 (0000ms, 0803ms total)
T19E0 001:290 JLINK_WriteReg(R9, 0x20000160)  returns 0x00 (0000ms, 0803ms total)
T19E0 001:290 JLINK_WriteReg(R10, 0x00000000)  returns 0x00 (0001ms, 0804ms total)
T19E0 001:291 JLINK_WriteReg(R11, 0x00000000)  returns 0x00 (0000ms, 0804ms total)
T19E0 001:291 JLINK_WriteReg(R12, 0x00000000)  returns 0x00 (0000ms, 0804ms total)
T19E0 001:291 JLINK_WriteReg(R13 (SP), 0x20001000)  returns 0x00 (0000ms, 0804ms total)
T19E0 001:291 JLINK_WriteReg(R14, 0x20000001)  returns 0x00 (0000ms, 0804ms total)
T19E0 001:291 JLINK_WriteReg(R15 (PC), 0x20000020)  returns 0x00 (0000ms, 0804ms total)
T19E0 001:291 JLINK_WriteReg(XPSR, 0x01000000)  returns 0x00 (0000ms, 0804ms total)
T19E0 001:291 JLINK_WriteReg(MSP, 0x20001000)  returns 0x00 (0000ms, 0804ms total)
T19E0 001:291 JLINK_WriteReg(PSP, 0x20001000)  returns 0x00 (0000ms, 0804ms total)
T19E0 001:291 JLINK_WriteReg(CFBP, 0x00000000)  returns 0x00 (0000ms, 0804ms total)
T19E0 001:291 JLINK_SetBPEx(Addr = 0x20000000, Type = 0xFFFFFFF2)  returns 0x00000008 (0000ms, 0804ms total)
T19E0 001:291 JLINK_Go() >0x310 JTAG> >0x218 JTAG> >0x218 JTAG> >0x218 JTAG> >0x218 JTAG> >0x240 JTAG> >0x240 JTAG> (0012ms, 0816ms total)
T19E0 001:303 JLINK_IsHalted() >0x198 JTAG>  returns FALSE (0001ms, 0817ms total)
T19E0 001:305 JLINK_IsHalted() >0x198 JTAG> >0x17A8 JTAG> >0x1F0 JTAG>  returns TRUE (0009ms, 0825ms total)
T19E0 001:314 JLINK_ReadReg(R15 (PC))  returns 0x20000000 (0000ms, 0816ms total)
T19E0 001:314 JLINK_ClrBPEx(BPHandle = 0x00000008)  returns 0x00 (0000ms, 0816ms total)
T19E0 001:314 JLINK_ReadReg(R0)  returns 0x00000000 (0000ms, 0816ms total)
T19E0 001:315 JLINK_WriteReg(R0, 0x08003800)  returns 0x00 (0000ms, 0816ms total)
T19E0 001:315 JLINK_WriteReg(R1, 0x00000800)  returns 0x00 (0000ms, 0816ms total)
T19E0 001:315 JLINK_WriteReg(R2, 0x000000FF)  returns 0x00 (0001ms, 0817ms total)
T19E0 001:316 JLINK_WriteReg(R3, 0x00000000)  returns 0x00 (0000ms, 0817ms total)
T19E0 001:316 JLINK_WriteReg(R4, 0x00000000)  returns 0x00 (0000ms, 0817ms total)
T19E0 001:316 JLINK_WriteReg(R5, 0x00000000)  returns 0x00 (0000ms, 0817ms total)
T19E0 001:316 JLINK_WriteReg(R6, 0x00000000)  returns 0x00 (0000ms, 0817ms total)
T19E0 001:316 JLINK_WriteReg(R7, 0x00000000)  returns 0x00 (0000ms, 0817ms total)
T19E0 001:316 JLINK_WriteReg(R8, 0x00000000)  returns 0x00 (0000ms, 0817ms total)
T19E0 001:316 JLINK_WriteReg(R9, 0x20000160)  returns 0x00 (0000ms, 0817ms total)
T19E0 001:316 JLINK_WriteReg(R10, 0x00000000)  returns 0x00 (0000ms, 0817ms total)
T19E0 001:316 JLINK_WriteReg(R11, 0x00000000)  returns 0x00 (0000ms, 0817ms total)
T19E0 001:316 JLINK_WriteReg(R12, 0x00000000)  returns 0x00 (0000ms, 0817ms total)
T19E0 001:316 JLINK_WriteReg(R13 (SP), 0x20001000)  returns 0x00 (0000ms, 0817ms total)
T19E0 001:316 JLINK_WriteReg(R14, 0x20000001)  returns 0x00 (0001ms, 0818ms total)
T19E0 001:317 JLINK_WriteReg(R15 (PC), 0x20000020)  returns 0x00 (0000ms, 0818ms total)
T19E0 001:317 JLINK_WriteReg(XPSR, 0x01000000)  returns 0x00 (0000ms, 0818ms total)
T19E0 001:317 JLINK_WriteReg(MSP, 0x20001000)  returns 0x00 (0000ms, 0818ms total)
T19E0 001:317 JLINK_WriteReg(PSP, 0x20001000)  returns 0x00 (0000ms, 0818ms total)
T19E0 001:317 JLINK_WriteReg(CFBP, 0x00000000)  returns 0x00 (0000ms, 0818ms total)
T19E0 001:317 JLINK_SetBPEx(Addr = 0x20000000, Type = 0xFFFFFFF2)  returns 0x00000009 (0000ms, 0818ms total)
T19E0 001:317 JLINK_Go() >0x310 JTAG> >0x218 JTAG> >0x218 JTAG> >0x218 JTAG> >0x218 JTAG> >0x240 JTAG> >0x240 JTAG> (0012ms, 0830ms total)
T19E0 001:329 JLINK_IsHalted() >0x198 JTAG>  returns FALSE (0001ms, 0831ms total)
T19E0 001:344 JLINK_IsHalted() >0x198 JTAG> >0x17A8 JTAG> >0x1F0 JTAG>  returns TRUE (0009ms, 0839ms total)
T19E0 001:353 JLINK_ReadReg(R15 (PC))  returns 0x20000000 (0000ms, 0830ms total)
T19E0 001:353 JLINK_ClrBPEx(BPHandle = 0x00000009)  returns 0x00 (0000ms, 0830ms total)
T19E0 001:353 JLINK_ReadReg(R0)  returns 0x00000000 (0000ms, 0830ms total)
T19E0 001:354 JLINK_WriteReg(R0, 0x08004000)  returns 0x00 (0000ms, 0830ms total)
T19E0 001:354 JLINK_WriteReg(R1, 0x00000800)  returns 0x00 (0000ms, 0830ms total)
T19E0 001:354 JLINK_WriteReg(R2, 0x000000FF)  returns 0x00 (0000ms, 0830ms total)
T19E0 001:354 JLINK_WriteReg(R3, 0x00000000)  returns 0x00 (0000ms, 0830ms total)
T19E0 001:354 JLINK_WriteReg(R4, 0x00000000)  returns 0x00 (0000ms, 0830ms total)
T19E0 001:354 JLINK_WriteReg(R5, 0x00000000)  returns 0x00 (0000ms, 0830ms total)
T19E0 001:354 JLINK_WriteReg(R6, 0x00000000)  returns 0x00 (0000ms, 0830ms total)
T19E0 001:354 JLINK_WriteReg(R7, 0x00000000)  returns 0x00 (0000ms, 0830ms total)
T19E0 001:354 JLINK_WriteReg(R8, 0x00000000)  returns 0x00 (0001ms, 0831ms total)
T19E0 001:355 JLINK_WriteReg(R9, 0x20000160)  returns 0x00 (0000ms, 0831ms total)
T19E0 001:355 JLINK_WriteReg(R10, 0x00000000)  returns 0x00 (0000ms, 0831ms total)
T19E0 001:355 JLINK_WriteReg(R11, 0x00000000)  returns 0x00 (0000ms, 0831ms total)
T19E0 001:355 JLINK_WriteReg(R12, 0x00000000)  returns 0x00 (0000ms, 0831ms total)
T19E0 001:355 JLINK_WriteReg(R13 (SP), 0x20001000)  returns 0x00 (0000ms, 0831ms total)
T19E0 001:355 JLINK_WriteReg(R14, 0x20000001)  returns 0x00 (0000ms, 0831ms total)
T19E0 001:355 JLINK_WriteReg(R15 (PC), 0x20000020)  returns 0x00 (0000ms, 0831ms total)
T19E0 001:355 JLINK_WriteReg(XPSR, 0x01000000)  returns 0x00 (0000ms, 0831ms total)
T19E0 001:355 JLINK_WriteReg(MSP, 0x20001000)  returns 0x00 (0000ms, 0831ms total)
T19E0 001:355 JLINK_WriteReg(PSP, 0x20001000)  returns 0x00 (0000ms, 0831ms total)
T19E0 001:355 JLINK_WriteReg(CFBP, 0x00000000)  returns 0x00 (0000ms, 0831ms total)
T19E0 001:355 JLINK_SetBPEx(Addr = 0x20000000, Type = 0xFFFFFFF2)  returns 0x0000000A (0001ms, 0832ms total)
T19E0 001:356 JLINK_Go() >0x310 JTAG> >0x218 JTAG> >0x218 JTAG> >0x218 JTAG> >0x218 JTAG> >0x240 JTAG> >0x240 JTAG> (0011ms, 0843ms total)
T19E0 001:367 JLINK_IsHalted() >0x198 JTAG>  returns FALSE (0002ms, 0845ms total)
T19E0 001:383 JLINK_IsHalted() >0x198 JTAG> >0x17A8 JTAG> >0x1F0 JTAG>  returns TRUE (0012ms, 0855ms total)
T19E0 001:395 JLINK_ReadReg(R15 (PC))  returns 0x20000000 (0000ms, 0843ms total)
T19E0 001:395 JLINK_ClrBPEx(BPHandle = 0x0000000A)  returns 0x00 (0000ms, 0843ms total)
T19E0 001:395 JLINK_ReadReg(R0)  returns 0x00000000 (0000ms, 0843ms total)
T19E0 001:396 JLINK_WriteReg(R0, 0x08004800)  returns 0x00 (0000ms, 0843ms total)
T19E0 001:396 JLINK_WriteReg(R1, 0x00000800)  returns 0x00 (0000ms, 0843ms total)
T19E0 001:396 JLINK_WriteReg(R2, 0x000000FF)  returns 0x00 (0000ms, 0843ms total)
T19E0 001:396 JLINK_WriteReg(R3, 0x00000000)  returns 0x00 (0000ms, 0843ms total)
T19E0 001:396 JLINK_WriteReg(R4, 0x00000000)  returns 0x00 (0001ms, 0844ms total)
T19E0 001:397 JLINK_WriteReg(R5, 0x00000000)  returns 0x00 (0000ms, 0844ms total)
T19E0 001:397 JLINK_WriteReg(R6, 0x00000000)  returns 0x00 (0000ms, 0844ms total)
T19E0 001:397 JLINK_WriteReg(R7, 0x00000000)  returns 0x00 (0000ms, 0844ms total)
T19E0 001:397 JLINK_WriteReg(R8, 0x00000000)  returns 0x00 (0000ms, 0844ms total)
T19E0 001:397 JLINK_WriteReg(R9, 0x20000160)  returns 0x00 (0000ms, 0844ms total)
T19E0 001:397 JLINK_WriteReg(R10, 0x00000000)  returns 0x00 (0000ms, 0844ms total)
T19E0 001:397 JLINK_WriteReg(R11, 0x00000000)  returns 0x00 (0000ms, 0844ms total)
T19E0 001:397 JLINK_WriteReg(R12, 0x00000000)  returns 0x00 (0000ms, 0844ms total)
T19E0 001:397 JLINK_WriteReg(R13 (SP), 0x20001000)  returns 0x00 (0001ms, 0845ms total)
T19E0 001:398 JLINK_WriteReg(R14, 0x20000001)  returns 0x00 (0000ms, 0845ms total)
T19E0 001:398 JLINK_WriteReg(R15 (PC), 0x20000020)  returns 0x00 (0000ms, 0845ms total)
T19E0 001:398 JLINK_WriteReg(XPSR, 0x01000000)  returns 0x00 (0000ms, 0845ms total)
T19E0 001:398 JLINK_WriteReg(MSP, 0x20001000)  returns 0x00 (0000ms, 0845ms total)
T19E0 001:398 JLINK_WriteReg(PSP, 0x20001000)  returns 0x00 (0000ms, 0845ms total)
T19E0 001:398 JLINK_WriteReg(CFBP, 0x00000000)  returns 0x00 (0000ms, 0845ms total)
T19E0 001:398 JLINK_SetBPEx(Addr = 0x20000000, Type = 0xFFFFFFF2)  returns 0x0000000B (0000ms, 0845ms total)
T19E0 001:398 JLINK_Go() >0x310 JTAG> >0x218 JTAG> >0x218 JTAG> >0x218 JTAG> >0x218 JTAG> >0x240 JTAG> >0x240 JTAG> (0014ms, 0859ms total)
T19E0 001:412 JLINK_IsHalted() >0x198 JTAG>  returns FALSE (0001ms, 0860ms total)
T19E0 001:415 JLINK_IsHalted() >0x198 JTAG> >0x17A8 JTAG> >0x1F0 JTAG>  returns TRUE (0008ms, 0868ms total)
T19E0 001:423 JLINK_ReadReg(R15 (PC))  returns 0x20000000 (0000ms, 0860ms total)
T19E0 001:423 JLINK_ClrBPEx(BPHandle = 0x0000000B)  returns 0x00 (0000ms, 0860ms total)
T19E0 001:423 JLINK_ReadReg(R0)  returns 0x00000000 (0000ms, 0860ms total)
T19E0 001:424 JLINK_WriteReg(R0, 0x08005000)  returns 0x00 (0000ms, 0860ms total)
T19E0 001:424 JLINK_WriteReg(R1, 0x00000800)  returns 0x00 (0000ms, 0860ms total)
T19E0 001:424 JLINK_WriteReg(R2, 0x000000FF)  returns 0x00 (0000ms, 0860ms total)
T19E0 001:424 JLINK_WriteReg(R3, 0x00000000)  returns 0x00 (0000ms, 0860ms total)
T19E0 001:424 JLINK_WriteReg(R4, 0x00000000)  returns 0x00 (0000ms, 0860ms total)
T19E0 001:424 JLINK_WriteReg(R5, 0x00000000)  returns 0x00 (0000ms, 0860ms total)
T19E0 001:424 JLINK_WriteReg(R6, 0x00000000)  returns 0x00 (0000ms, 0860ms total)
T19E0 001:424 JLINK_WriteReg(R7, 0x00000000)  returns 0x00 (0000ms, 0860ms total)
T19E0 001:424 JLINK_WriteReg(R8, 0x00000000)  returns 0x00 (0000ms, 0860ms total)
T19E0 001:424 JLINK_WriteReg(R9, 0x20000160)  returns 0x00 (0000ms, 0860ms total)
T19E0 001:424 JLINK_WriteReg(R10, 0x00000000)  returns 0x00 (0001ms, 0861ms total)
T19E0 001:425 JLINK_WriteReg(R11, 0x00000000)  returns 0x00 (0000ms, 0861ms total)
T19E0 001:425 JLINK_WriteReg(R12, 0x00000000)  returns 0x00 (0000ms, 0861ms total)
T19E0 001:425 JLINK_WriteReg(R13 (SP), 0x20001000)  returns 0x00 (0000ms, 0861ms total)
T19E0 001:425 JLINK_WriteReg(R14, 0x20000001)  returns 0x00 (0000ms, 0861ms total)
T19E0 001:425 JLINK_WriteReg(R15 (PC), 0x20000020)  returns 0x00 (0000ms, 0861ms total)
T19E0 001:425 JLINK_WriteReg(XPSR, 0x01000000)  returns 0x00 (0000ms, 0861ms total)
T19E0 001:425 JLINK_WriteReg(MSP, 0x20001000)  returns 0x00 (0000ms, 0861ms total)
T19E0 001:425 JLINK_WriteReg(PSP, 0x20001000)  returns 0x00 (0000ms, 0861ms total)
T19E0 001:425 JLINK_WriteReg(CFBP, 0x00000000)  returns 0x00 (0000ms, 0861ms total)
T19E0 001:425 JLINK_SetBPEx(Addr = 0x20000000, Type = 0xFFFFFFF2)  returns 0x0000000C (0000ms, 0861ms total)
T19E0 001:425 JLINK_Go() >0x310 JTAG> >0x218 JTAG> >0x218 JTAG> >0x218 JTAG> >0x218 JTAG> >0x240 JTAG> >0x240 JTAG> (0009ms, 0870ms total)
T19E0 001:434 JLINK_IsHalted() >0x198 JTAG>  returns FALSE (0001ms, 0871ms total)
T19E0 001:454 JLINK_IsHalted() >0x198 JTAG> >0x17A8 JTAG> >0x1F0 JTAG>  returns TRUE (0008ms, 0878ms total)
T19E0 001:462 JLINK_ReadReg(R15 (PC))  returns 0x20000000 (0000ms, 0870ms total)
T19E0 001:462 JLINK_ClrBPEx(BPHandle = 0x0000000C)  returns 0x00 (0000ms, 0870ms total)
T19E0 001:462 JLINK_ReadReg(R0)  returns 0x00000000 (0000ms, 0870ms total)
T19E0 001:462 JLINK_WriteReg(R0, 0x08005800)  returns 0x00 (0000ms, 0870ms total)
T19E0 001:462 JLINK_WriteReg(R1, 0x00000800)  returns 0x00 (0000ms, 0870ms total)
T19E0 001:462 JLINK_WriteReg(R2, 0x000000FF)  returns 0x00 (0000ms, 0870ms total)
T19E0 001:462 JLINK_WriteReg(R3, 0x00000000)  returns 0x00 (0000ms, 0870ms total)
T19E0 001:462 JLINK_WriteReg(R4, 0x00000000)  returns 0x00 (0000ms, 0870ms total)
T19E0 001:462 JLINK_WriteReg(R5, 0x00000000)  returns 0x00 (0000ms, 0870ms total)
T19E0 001:462 JLINK_WriteReg(R6, 0x00000000)  returns 0x00 (0000ms, 0870ms total)
T19E0 001:463 JLINK_WriteReg(R7, 0x00000000)  returns 0x00 (0000ms, 0870ms total)
T19E0 001:463 JLINK_WriteReg(R8, 0x00000000)  returns 0x00 (0000ms, 0870ms total)
T19E0 001:463 JLINK_WriteReg(R9, 0x20000160)  returns 0x00 (0000ms, 0870ms total)
T19E0 001:463 JLINK_WriteReg(R10, 0x00000000)  returns 0x00 (0000ms, 0870ms total)
T19E0 001:463 JLINK_WriteReg(R11, 0x00000000)  returns 0x00 (0000ms, 0870ms total)
T19E0 001:463 JLINK_WriteReg(R12, 0x00000000)  returns 0x00 (0000ms, 0870ms total)
T19E0 001:463 JLINK_WriteReg(R13 (SP), 0x20001000)  returns 0x00 (0000ms, 0870ms total)
T19E0 001:463 JLINK_WriteReg(R14, 0x20000001)  returns 0x00 (0000ms, 0870ms total)
T19E0 001:463 JLINK_WriteReg(R15 (PC), 0x20000020)  returns 0x00 (0000ms, 0870ms total)
T19E0 001:463 JLINK_WriteReg(XPSR, 0x01000000)  returns 0x00 (0000ms, 0870ms total)
T19E0 001:463 JLINK_WriteReg(MSP, 0x20001000)  returns 0x00 (0000ms, 0870ms total)
T19E0 001:463 JLINK_WriteReg(PSP, 0x20001000)  returns 0x00 (0000ms, 0870ms total)
T19E0 001:463 JLINK_WriteReg(CFBP, 0x00000000)  returns 0x00 (0000ms, 0870ms total)
T19E0 001:463 JLINK_SetBPEx(Addr = 0x20000000, Type = 0xFFFFFFF2)  returns 0x0000000D (0000ms, 0870ms total)
T19E0 001:463 JLINK_Go() >0x310 JTAG> >0x218 JTAG> >0x218 JTAG> >0x218 JTAG> >0x218 JTAG> >0x240 JTAG> >0x240 JTAG> (0009ms, 0879ms total)
T19E0 001:472 JLINK_IsHalted() >0x198 JTAG>  returns FALSE (0001ms, 0880ms total)
T19E0 001:488 JLINK_IsHalted() >0x198 JTAG> >0x17A8 JTAG> >0x1F0 JTAG>  returns TRUE (0007ms, 0886ms total)
T19E0 001:495 JLINK_ReadReg(R15 (PC))  returns 0x20000000 (0000ms, 0879ms total)
T19E0 001:495 JLINK_ClrBPEx(BPHandle = 0x0000000D)  returns 0x00 (0000ms, 0879ms total)
T19E0 001:495 JLINK_ReadReg(R0)  returns 0x00000000 (0000ms, 0879ms total)
T19E0 001:495 JLINK_WriteReg(R0, 0x08006000)  returns 0x00 (0000ms, 0879ms total)
T19E0 001:495 JLINK_WriteReg(R1, 0x00000800)  returns 0x00 (0000ms, 0879ms total)
T19E0 001:495 JLINK_WriteReg(R2, 0x000000FF)  returns 0x00 (0000ms, 0879ms total)
T19E0 001:495 JLINK_WriteReg(R3, 0x00000000)  returns 0x00 (0000ms, 0879ms total)
T19E0 001:495 JLINK_WriteReg(R4, 0x00000000)  returns 0x00 (0000ms, 0879ms total)
T19E0 001:495 JLINK_WriteReg(R5, 0x00000000)  returns 0x00 (0000ms, 0879ms total)
T19E0 001:495 JLINK_WriteReg(R6, 0x00000000)  returns 0x00 (0001ms, 0880ms total)
T19E0 001:496 JLINK_WriteReg(R7, 0x00000000)  returns 0x00 (0000ms, 0880ms total)
T19E0 001:496 JLINK_WriteReg(R8, 0x00000000)  returns 0x00 (0000ms, 0880ms total)
T19E0 001:496 JLINK_WriteReg(R9, 0x20000160)  returns 0x00 (0000ms, 0880ms total)
T19E0 001:496 JLINK_WriteReg(R10, 0x00000000)  returns 0x00 (0000ms, 0880ms total)
T19E0 001:496 JLINK_WriteReg(R11, 0x00000000)  returns 0x00 (0000ms, 0880ms total)
T19E0 001:496 JLINK_WriteReg(R12, 0x00000000)  returns 0x00 (0000ms, 0880ms total)
T19E0 001:496 JLINK_WriteReg(R13 (SP), 0x20001000)  returns 0x00 (0000ms, 0880ms total)
T19E0 001:496 JLINK_WriteReg(R14, 0x20000001)  returns 0x00 (0000ms, 0880ms total)
T19E0 001:496 JLINK_WriteReg(R15 (PC), 0x20000020)  returns 0x00 (0000ms, 0880ms total)
T19E0 001:496 JLINK_WriteReg(XPSR, 0x01000000)  returns 0x00 (0000ms, 0880ms total)
T19E0 001:496 JLINK_WriteReg(MSP, 0x20001000)  returns 0x00 (0000ms, 0880ms total)
T19E0 001:496 JLINK_WriteReg(PSP, 0x20001000)  returns 0x00 (0000ms, 0880ms total)
T19E0 001:496 JLINK_WriteReg(CFBP, 0x00000000)  returns 0x00 (0000ms, 0880ms total)
T19E0 001:496 JLINK_SetBPEx(Addr = 0x20000000, Type = 0xFFFFFFF2)  returns 0x0000000E (0000ms, 0880ms total)
T19E0 001:496 JLINK_Go() >0x310 JTAG> >0x218 JTAG> >0x218 JTAG> >0x218 JTAG> >0x218 JTAG> >0x240 JTAG> >0x240 JTAG> (0007ms, 0887ms total)
T19E0 001:503 JLINK_IsHalted() >0x198 JTAG>  returns FALSE (0001ms, 0888ms total)
T19E0 001:506 JLINK_IsHalted() >0x198 JTAG>  returns FALSE (0000ms, 0887ms total)
T19E0 001:507 JLINK_IsHalted() >0x198 JTAG> >0x17A8 JTAG> >0x1F0 JTAG>  returns TRUE (0007ms, 0894ms total)
T19E0 001:514 JLINK_ReadReg(R15 (PC))  returns 0x20000000 (0000ms, 0887ms total)
T19E0 001:514 JLINK_ClrBPEx(BPHandle = 0x0000000E)  returns 0x00 (0000ms, 0887ms total)
T19E0 001:514 JLINK_ReadReg(R0)  returns 0x00000000 (0000ms, 0887ms total)
T19E0 001:514 JLINK_WriteReg(R0, 0x08006800)  returns 0x00 (0000ms, 0887ms total)
T19E0 001:514 JLINK_WriteReg(R1, 0x00000800)  returns 0x00 (0000ms, 0887ms total)
T19E0 001:514 JLINK_WriteReg(R2, 0x000000FF)  returns 0x00 (0000ms, 0887ms total)
T19E0 001:514 JLINK_WriteReg(R3, 0x00000000)  returns 0x00 (0000ms, 0887ms total)
T19E0 001:514 JLINK_WriteReg(R4, 0x00000000)  returns 0x00 (0000ms, 0887ms total)
T19E0 001:514 JLINK_WriteReg(R5, 0x00000000)  returns 0x00 (0000ms, 0887ms total)
T19E0 001:514 JLINK_WriteReg(R6, 0x00000000)  returns 0x00 (0000ms, 0887ms total)
T19E0 001:514 JLINK_WriteReg(R7, 0x00000000)  returns 0x00 (0000ms, 0887ms total)
T19E0 001:514 JLINK_WriteReg(R8, 0x00000000)  returns 0x00 (0000ms, 0887ms total)
T19E0 001:514 JLINK_WriteReg(R9, 0x20000160)  returns 0x00 (0000ms, 0887ms total)
T19E0 001:514 JLINK_WriteReg(R10, 0x00000000)  returns 0x00 (0000ms, 0887ms total)
T19E0 001:514 JLINK_WriteReg(R11, 0x00000000)  returns 0x00 (0000ms, 0887ms total)
T19E0 001:515 JLINK_WriteReg(R12, 0x00000000)  returns 0x00 (0000ms, 0887ms total)
T19E0 001:515 JLINK_WriteReg(R13 (SP), 0x20001000)  returns 0x00 (0000ms, 0887ms total)
T19E0 001:515 JLINK_WriteReg(R14, 0x20000001)  returns 0x00 (0000ms, 0887ms total)
T19E0 001:515 JLINK_WriteReg(R15 (PC), 0x20000020)  returns 0x00 (0000ms, 0887ms total)
T19E0 001:515 JLINK_WriteReg(XPSR, 0x01000000)  returns 0x00 (0000ms, 0887ms total)
T19E0 001:515 JLINK_WriteReg(MSP, 0x20001000)  returns 0x00 (0000ms, 0887ms total)
T19E0 001:515 JLINK_WriteReg(PSP, 0x20001000)  returns 0x00 (0000ms, 0887ms total)
T19E0 001:515 JLINK_WriteReg(CFBP, 0x00000000)  returns 0x00 (0000ms, 0887ms total)
T19E0 001:515 JLINK_SetBPEx(Addr = 0x20000000, Type = 0xFFFFFFF2)  returns 0x0000000F (0000ms, 0887ms total)
T19E0 001:515 JLINK_Go() >0x310 JTAG> >0x218 JTAG> >0x218 JTAG> >0x218 JTAG> >0x218 JTAG> >0x240 JTAG> >0x240 JTAG> (0007ms, 0894ms total)
T19E0 001:522 JLINK_IsHalted() >0x198 JTAG>  returns FALSE (0001ms, 0895ms total)
T19E0 001:526 JLINK_IsHalted() >0x198 JTAG> >0x17A8 JTAG> >0x1F0 JTAG>  returns TRUE (0007ms, 0901ms total)
T19E0 001:533 JLINK_ReadReg(R15 (PC))  returns 0x20000000 (0000ms, 0894ms total)
T19E0 001:533 JLINK_ClrBPEx(BPHandle = 0x0000000F)  returns 0x00 (0000ms, 0894ms total)
T19E0 001:533 JLINK_ReadReg(R0)  returns 0x00000000 (0000ms, 0894ms total)
T19E0 001:533 JLINK_WriteReg(R0, 0x08007000)  returns 0x00 (0000ms, 0894ms total)
T19E0 001:533 JLINK_WriteReg(R1, 0x00000800)  returns 0x00 (0000ms, 0894ms total)
T19E0 001:533 JLINK_WriteReg(R2, 0x000000FF)  returns 0x00 (0000ms, 0894ms total)
T19E0 001:533 JLINK_WriteReg(R3, 0x00000000)  returns 0x00 (0000ms, 0894ms total)
T19E0 001:533 JLINK_WriteReg(R4, 0x00000000)  returns 0x00 (0000ms, 0894ms total)
T19E0 001:533 JLINK_WriteReg(R5, 0x00000000)  returns 0x00 (0000ms, 0894ms total)
T19E0 001:534 JLINK_WriteReg(R6, 0x00000000)  returns 0x00 (0000ms, 0895ms total)
T19E0 001:534 JLINK_WriteReg(R7, 0x00000000)  returns 0x00 (0000ms, 0895ms total)
T19E0 001:534 JLINK_WriteReg(R8, 0x00000000)  returns 0x00 (0000ms, 0895ms total)
T19E0 001:534 JLINK_WriteReg(R9, 0x20000160)  returns 0x00 (0000ms, 0895ms total)
T19E0 001:534 JLINK_WriteReg(R10, 0x00000000)  returns 0x00 (0000ms, 0895ms total)
T19E0 001:534 JLINK_WriteReg(R11, 0x00000000)  returns 0x00 (0000ms, 0895ms total)
T19E0 001:534 JLINK_WriteReg(R12, 0x00000000)  returns 0x00 (0000ms, 0895ms total)
T19E0 001:534 JLINK_WriteReg(R13 (SP), 0x20001000)  returns 0x00 (0000ms, 0895ms total)
T19E0 001:534 JLINK_WriteReg(R14, 0x20000001)  returns 0x00 (0000ms, 0895ms total)
T19E0 001:534 JLINK_WriteReg(R15 (PC), 0x20000020)  returns 0x00 (0000ms, 0895ms total)
T19E0 001:534 JLINK_WriteReg(XPSR, 0x01000000)  returns 0x00 (0000ms, 0895ms total)
T19E0 001:534 JLINK_WriteReg(MSP, 0x20001000)  returns 0x00 (0000ms, 0895ms total)
T19E0 001:534 JLINK_WriteReg(PSP, 0x20001000)  returns 0x00 (0000ms, 0895ms total)
T19E0 001:534 JLINK_WriteReg(CFBP, 0x00000000)  returns 0x00 (0000ms, 0895ms total)
T19E0 001:534 JLINK_SetBPEx(Addr = 0x20000000, Type = 0xFFFFFFF2)  returns 0x00000010 (0000ms, 0895ms total)
T19E0 001:534 JLINK_Go() >0x310 JTAG> >0x218 JTAG> >0x218 JTAG> >0x218 JTAG> >0x218 JTAG> >0x240 JTAG> >0x240 JTAG> (0007ms, 0902ms total)
T19E0 001:541 JLINK_IsHalted() >0x198 JTAG>  returns FALSE (0001ms, 0903ms total)
T19E0 001:549 JLINK_IsHalted() >0x198 JTAG> >0x17A8 JTAG> >0x1F0 JTAG>  returns TRUE (0007ms, 0909ms total)
T19E0 001:556 JLINK_ReadReg(R15 (PC))  returns 0x20000000 (0000ms, 0902ms total)
T19E0 001:556 JLINK_ClrBPEx(BPHandle = 0x00000010)  returns 0x00 (0000ms, 0902ms total)
T19E0 001:556 JLINK_ReadReg(R0)  returns 0x00000000 (0000ms, 0902ms total)
T19E0 001:556 JLINK_WriteReg(R0, 0x08007800)  returns 0x00 (0000ms, 0902ms total)
T19E0 001:556 JLINK_WriteReg(R1, 0x00000800)  returns 0x00 (0000ms, 0902ms total)
T19E0 001:556 JLINK_WriteReg(R2, 0x000000FF)  returns 0x00 (0000ms, 0902ms total)
T19E0 001:556 JLINK_WriteReg(R3, 0x00000000)  returns 0x00 (0000ms, 0902ms total)
T19E0 001:556 JLINK_WriteReg(R4, 0x00000000)  returns 0x00 (0000ms, 0902ms total)
T19E0 001:556 JLINK_WriteReg(R5, 0x00000000)  returns 0x00 (0000ms, 0902ms total)
T19E0 001:556 JLINK_WriteReg(R6, 0x00000000)  returns 0x00 (0000ms, 0902ms total)
T19E0 001:556 JLINK_WriteReg(R7, 0x00000000)  returns 0x00 (0001ms, 0903ms total)
T19E0 001:557 JLINK_WriteReg(R8, 0x00000000)  returns 0x00 (0000ms, 0903ms total)
T19E0 001:557 JLINK_WriteReg(R9, 0x20000160)  returns 0x00 (0000ms, 0903ms total)
T19E0 001:557 JLINK_WriteReg(R10, 0x00000000)  returns 0x00 (0000ms, 0903ms total)
T19E0 001:557 JLINK_WriteReg(R11, 0x00000000)  returns 0x00 (0000ms, 0903ms total)
T19E0 001:557 JLINK_WriteReg(R12, 0x00000000)  returns 0x00 (0000ms, 0903ms total)
T19E0 001:557 JLINK_WriteReg(R13 (SP), 0x20001000)  returns 0x00 (0000ms, 0903ms total)
T19E0 001:557 JLINK_WriteReg(R14, 0x20000001)  returns 0x00 (0000ms, 0903ms total)
T19E0 001:557 JLINK_WriteReg(R15 (PC), 0x20000020)  returns 0x00 (0000ms, 0903ms total)
T19E0 001:557 JLINK_WriteReg(XPSR, 0x01000000)  returns 0x00 (0000ms, 0903ms total)
T19E0 001:557 JLINK_WriteReg(MSP, 0x20001000)  returns 0x00 (0000ms, 0903ms total)
T19E0 001:557 JLINK_WriteReg(PSP, 0x20001000)  returns 0x00 (0000ms, 0903ms total)
T19E0 001:557 JLINK_WriteReg(CFBP, 0x00000000)  returns 0x00 (0000ms, 0903ms total)
T19E0 001:557 JLINK_SetBPEx(Addr = 0x20000000, Type = 0xFFFFFFF2)  returns 0x00000011 (0000ms, 0903ms total)
T19E0 001:557 JLINK_Go() >0x310 JTAG> >0x218 JTAG> >0x218 JTAG> >0x218 JTAG> >0x218 JTAG> >0x240 JTAG> >0x240 JTAG> (0007ms, 0910ms total)
T19E0 001:564 JLINK_IsHalted() >0x198 JTAG> >0x17A8 JTAG> >0x1F0 JTAG>  returns TRUE (0007ms, 0917ms total)
T19E0 001:571 JLINK_ReadReg(R15 (PC))  returns 0x20000000 (0000ms, 0910ms total)
T19E0 001:571 JLINK_ClrBPEx(BPHandle = 0x00000011)  returns 0x00 (0000ms, 0910ms total)
T19E0 001:571 JLINK_ReadReg(R0)  returns 0x00000001 (0000ms, 0910ms total)
T19E0 001:571 JLINK_WriteReg(R0, 0x08007800)  returns 0x00 (0000ms, 0910ms total)
T19E0 001:571 JLINK_WriteReg(R1, 0x00000800)  returns 0x00 (0000ms, 0910ms total)
T19E0 001:572 JLINK_WriteReg(R2, 0x000000FF)  returns 0x00 (0000ms, 0910ms total)
T19E0 001:572 JLINK_WriteReg(R3, 0x00000000)  returns 0x00 (0000ms, 0910ms total)
T19E0 001:572 JLINK_WriteReg(R4, 0x00000000)  returns 0x00 (0000ms, 0910ms total)
T19E0 001:572 JLINK_WriteReg(R5, 0x00000000)  returns 0x00 (0000ms, 0910ms total)
T19E0 001:572 JLINK_WriteReg(R6, 0x00000000)  returns 0x00 (0000ms, 0910ms total)
T19E0 001:572 JLINK_WriteReg(R7, 0x00000000)  returns 0x00 (0000ms, 0910ms total)
T19E0 001:572 JLINK_WriteReg(R8, 0x00000000)  returns 0x00 (0000ms, 0910ms total)
T19E0 001:572 JLINK_WriteReg(R9, 0x20000160)  returns 0x00 (0000ms, 0910ms total)
T19E0 001:572 JLINK_WriteReg(R10, 0x00000000)  returns 0x00 (0000ms, 0910ms total)
T19E0 001:572 JLINK_WriteReg(R11, 0x00000000)  returns 0x00 (0000ms, 0910ms total)
T19E0 001:572 JLINK_WriteReg(R12, 0x00000000)  returns 0x00 (0000ms, 0910ms total)
T19E0 001:572 JLINK_WriteReg(R13 (SP), 0x20001000)  returns 0x00 (0000ms, 0910ms total)
T19E0 001:572 JLINK_WriteReg(R14, 0x20000001)  returns 0x00 (0000ms, 0910ms total)
T19E0 001:572 JLINK_WriteReg(R15 (PC), 0x200000B6)  returns 0x00 (0000ms, 0910ms total)
T19E0 001:572 JLINK_WriteReg(XPSR, 0x01000000)  returns 0x00 (0000ms, 0910ms total)
T19E0 001:572 JLINK_WriteReg(MSP, 0x20001000)  returns 0x00 (0000ms, 0910ms total)
T19E0 001:572 JLINK_WriteReg(PSP, 0x20001000)  returns 0x00 (0000ms, 0910ms total)
T19E0 001:572 JLINK_WriteReg(CFBP, 0x00000000)  returns 0x00 (0000ms, 0910ms total)
T19E0 001:572 JLINK_SetBPEx(Addr = 0x20000000, Type = 0xFFFFFFF2)  returns 0x00000012 (0000ms, 0910ms total)
T19E0 001:572 JLINK_Go() >0x310 JTAG> >0x218 JTAG> >0x218 JTAG> >0x218 JTAG> >0x240 JTAG> >0x240 JTAG> (0007ms, 0917ms total)
T19E0 001:579 JLINK_IsHalted() >0x198 JTAG>  returns FALSE (0001ms, 0918ms total)
T19E0 001:589 JLINK_IsHalted() >0x198 JTAG>  returns FALSE (0001ms, 0918ms total)
T19E0 001:594 JLINK_IsHalted() >0x198 JTAG>  returns FALSE (0001ms, 0918ms total)
T19E0 001:596 JLINK_IsHalted() >0x198 JTAG>  returns FALSE (0001ms, 0918ms total)
T19E0 001:598 JLINK_IsHalted() >0x198 JTAG>  returns FALSE (0001ms, 0918ms total)
T19E0 001:600 JLINK_IsHalted() >0x198 JTAG>  returns FALSE (0001ms, 0918ms total)
T19E0 001:602 JLINK_IsHalted() >0x198 JTAG> >0x17A8 JTAG> >0x1F0 JTAG>  returns TRUE (0008ms, 0925ms total)
T19E0 001:610 JLINK_ReadReg(R15 (PC))  returns 0x20000000 (0000ms, 0917ms total)
T19E0 001:610 JLINK_ClrBPEx(BPHandle = 0x00000012)  returns 0x00 (0000ms, 0917ms total)
T19E0 001:610 JLINK_ReadReg(R0)  returns 0x00000000 (0000ms, 0917ms total)
T19E0 001:610 JLINK_WriteReg(R0, 0x08008000)  returns 0x00 (0000ms, 0917ms total)
T19E0 001:610 JLINK_WriteReg(R1, 0x00000800)  returns 0x00 (0000ms, 0917ms total)
T19E0 001:610 JLINK_WriteReg(R2, 0x000000FF)  returns 0x00 (0000ms, 0917ms total)
T19E0 001:610 JLINK_WriteReg(R3, 0x00000000)  returns 0x00 (0000ms, 0917ms total)
T19E0 001:610 JLINK_WriteReg(R4, 0x00000000)  returns 0x00 (0000ms, 0917ms total)
T19E0 001:610 JLINK_WriteReg(R5, 0x00000000)  returns 0x00 (0000ms, 0917ms total)
T19E0 001:610 JLINK_WriteReg(R6, 0x00000000)  returns 0x00 (0000ms, 0917ms total)
T19E0 001:610 JLINK_WriteReg(R7, 0x00000000)  returns 0x00 (0000ms, 0917ms total)
T19E0 001:610 JLINK_WriteReg(R8, 0x00000000)  returns 0x00 (0000ms, 0917ms total)
T19E0 001:610 JLINK_WriteReg(R9, 0x20000160)  returns 0x00 (0000ms, 0917ms total)
T19E0 001:610 JLINK_WriteReg(R10, 0x00000000)  returns 0x00 (0000ms, 0917ms total)
T19E0 001:610 JLINK_WriteReg(R11, 0x00000000)  returns 0x00 (0000ms, 0917ms total)
T19E0 001:610 JLINK_WriteReg(R12, 0x00000000)  returns 0x00 (0000ms, 0917ms total)
